
T050C 000:651 SEGGER J-Link V4.84a Log File (0001ms, 0283ms total)
T050C 000:651 DLL Compiled: Apr  4 2014 18:02:19 (0001ms, 0283ms total)
T050C 000:651 Logging started @ 2016-01-10 17:42 (0002ms, 0284ms total)
T050C 000:653 JLINK_SetWarnOutHandler(...) (0000ms, 0284ms total)
T050C 000:653 JLINK_OpenEx(...)
Firmware: J-Link ARM-OB STM32 compiled Aug 22 2012 19:52:04
Hardware: V7.00
S/N: 20090928
Feature(s): RDI,FlashDL,FlashBP,JFlash,GDBFull  returns O.K. (0277ms, 0561ms total)
T050C 000:930 JLINK_SetErrorOutHandler(...) (0000ms, 0561ms total)
T050C 000:930 JLINK_ExecCommand("ProjectFile = "E:\robocon\program\WorkSpace0109\On_Off_status2016.1.9\On_Off_status\JLinkSettings.ini"", ...)  returns 0x00 (0001ms, 0562ms total)
T050C 000:943 JLINK_ExecCommand("Device = STM32F103RC", ...)Device "STM32F103RC" selected (256 KB flash, 48 KB RAM).  returns 0x00 (0022ms, 0584ms total)
T050C 000:965 JLINK_ExecCommand("DisableConnectionTimeout", ...)  returns 0x01 (0000ms, 0584ms total)
T050C 000:965 JLINK_GetHardwareVersion()  returns 0x11170 (0000ms, 0584ms total)
T050C 000:965 JLINK_GetDLLVersion()  returns 48401 (0000ms, 0584ms total)
T050C 000:965 JLINK_GetFirmwareString(...) (0000ms, 0584ms total)
T050C 000:989 JLINK_GetDLLVersion()  returns 48401 (0000ms, 0584ms total)
T050C 000:989 JLINK_GetCompileDateTime() (0000ms, 0584ms total)
T050C 000:994 JLINK_GetFirmwareString(...) (0000ms, 0584ms total)
T050C 001:001 JLINK_GetHardwareVersion()  returns 0x11170 (0000ms, 0584ms total)
T050C 001:026 JLINK_TIF_Select(JLINKARM_TIF_SWD)  returns 0x00 (0003ms, 0587ms total)
T050C 001:029 JLINK_SetSpeed(10000) (0001ms, 0588ms total)
T050C 001:030 JLINK_GetId() >0x108 TIF>Found SWD-DP with ID 0x1BA01477 >0x0D TIF> >0x28 TIF> >0x0D TIF> >0x28 TIF> >0x0D TIF> >0x21 TIF> >0x0D TIF> >0x28 TIF> >0x0D TIF> >0x28 TIF> >0x0D TIF> >0x28 TIF> >0x0D TIF> >0x21 TIF> >0x0D TIF> >0x21 TIF> >0x0D TIF> >0x28 TIF> >0x0D TIF> >0x21 TIF> >0x0D TIF> >0x21 TIF> >0x0D TIF> >0x28 TIF> >0x0D TIF> >0x28 TIF> >0x108 TIF>Found SWD-DP with ID 0x1BA01477 >0x0D TIF> >0x21 TIF> >0x0D TIF> >0x28 TIF> >0x0D TIF> >0x28 TIF> >0x0D TIF> >0x21 TIF> >0x0D TIF> >0x28 TIF>
 >0x0D TIF> >0x21 TIF> >0x0D TIF> >0x21 TIF> >0x0D TIF> >0x21 TIF> >0x0D TIF> >0x21 TIF> >0x0D TIF> >0x28 TIF> >0x0D TIF> >0x28 TIF> >0x0D TIF> >0x21 TIF> >0x0D TIF> >0x28 TIF> >0x0D TIF> >0x28 TIF> >0x0D TIF> >0x28 TIF> >0x0D TIF> >0x21 TIF> >0x0D TIF> >0x21 TIF> >0x0D TIF> >0x28 TIF> >0x0D TIF> >0x21 TIF> >0x0D TIF> >0x21 TIF>Found Cortex-M3 r1p1, Little endian. -- CPU_WriteMem(4 bytes @ 0xE0002000) -- CPU_ReadMem(4 bytes @ 0xE000EDF0) -- CPU_WriteMem(4 bytes @ 0xE000EDF0)
 -- CPU_ReadMem(4 bytes @ 0xE0002000)FPUnit: 6 code (BP) slots and 2 literal slots -- CPU_ReadMem(4 bytes @ 0xE000EDFC) -- CPU_WriteMem(4 bytes @ 0xE000EDFC) -- CPU_ReadMem(4 bytes @ 0xE0001000) -- CPU_WriteMem(4 bytes @ 0xE0001000) -- CPU_ReadMem(4 bytes @ 0xE00FF010)TPIU fitted. -- CPU_ReadMem(4 bytes @ 0xE00FF014)ETM fitted. -- CPU_ReadMem(4 bytes @ 0xE00FF018) >0x0D TIF> >0x21 TIF>  returns 0x1BA01477 (0128ms, 0716ms total)
T050C 001:158 JLINK_GetDeviceFamily()  returns 3 (0000ms, 0716ms total)
T050C 001:175 JLINK_ReadMem (0xE00FFFF0, 0x0010 Bytes, ...) -- CPU is running -- CPU_ReadMem(16 bytes @ 0xE00FFFF0) -- Data:  0D 00 00 00 10 00 00 00 05 00 00 00 B1 00 00 00  returns 0x00 (0002ms, 0718ms total)
T050C 001:177 JLINK_ReadMem (0xE00FFFD0, 0x0020 Bytes, ...) -- CPU is running -- CPU_ReadMem(32 bytes @ 0xE00FFFD0) -- Data:  00 00 00 00 00 00 00 00 00 00 00 00 00 00 00 00 ...  returns 0x00 (0002ms, 0720ms total)
T050C 001:179 JLINK_ReadMem (0xE00FF000, 0x0018 Bytes, ...) -- CPU is running -- CPU_ReadMem(24 bytes @ 0xE00FF000) -- Data:  03 F0 F0 FF 03 20 F0 FF 03 30 F0 FF 03 10 F0 FF ...  returns 0x00 (0002ms, 0722ms total)
T050C 001:181 JLINK_ReadMemU32(0xE000ED00, 0x0001 Items, ...) -- CPU is running -- CPU_ReadMem(4 bytes @ 0xE000ED00) -- Data:  31 C2 1F 41  returns 0x01 (0001ms, 0723ms total)
T050C 001:182 JLINK_SetResetType(JLINKARM_RESET_TYPE_NORMAL)  returns JLINKARM_RESET_TYPE_NORMAL (0000ms, 0723ms total)
T050C 001:182 JLINK_Reset() -- CPU is running -- CPU_WriteMem(4 bytes @ 0xE000EDF0) -- CPU is running -- CPU_WriteMem(4 bytes @ 0xE000EDFC) >0x35 TIF> -- CPU is running -- CPU_WriteMem(4 bytes @ 0xE000ED0C) -- CPU is running -- CPU_ReadMem(4 bytes @ 0xE000EDF0) -- CPU is running -- CPU_ReadMem(4 bytes @ 0xE000EDF0) -- CPU is running -- CPU_WriteMem(4 bytes @ 0xE000EDF0) -- CPU is running -- CPU_WriteMem(4 bytes @ 0xE000EDFC) -- CPU is running -- CPU_ReadMem(4 bytes @ 0xE000EDF0)
 -- CPU_WriteMem(4 bytes @ 0xE0002000) -- CPU_ReadMem(4 bytes @ 0xE000EDFC) -- CPU_ReadMem(4 bytes @ 0xE0001000) (0027ms, 0750ms total)
T050C 001:209 JLINK_Halt()  returns 0x00 (0000ms, 0750ms total)
T050C 001:209 JLINK_IsHalted()  returns TRUE (0000ms, 0750ms total)
T050C 001:209 JLINK_ReadMemU32(0xE000EDF0, 0x0001 Items, ...) -- CPU_ReadMem(4 bytes @ 0xE000EDF0) -- Data:  03 00 03 00  returns 0x01 (0001ms, 0751ms total)
T050C 001:210 JLINK_WriteU32(0xE000EDF0, 0xA05F0003) -- CPU_WriteMem(4 bytes @ 0xE000EDF0)  returns 0x00 (0001ms, 0752ms total)
T050C 001:211 JLINK_WriteU32(0xE000EDFC, 0x01000000) -- CPU_WriteMem(4 bytes @ 0xE000EDFC)  returns 0x00 (0001ms, 0753ms total)
T050C 001:240 JLINK_GetHWStatus(...)  returns 0x00 (0001ms, 0754ms total)
T050C 001:260 JLINK_GetNumBPUnits(Type = 0xFFFFFF00)  returns 0x06 (0000ms, 0754ms total)
T050C 001:260 JLINK_GetNumBPUnits(Type = 0xF0)  returns 0x2000 (0000ms, 0754ms total)
T050C 001:260 JLINK_GetNumWPUnits()  returns 0x04 (0000ms, 0754ms total)
T050C 001:281 JLINK_GetSpeed()  returns 0xFA0 (0000ms, 0754ms total)
T050C 001:290 JLINK_ReadMemU32(0xE000E004, 0x0001 Items, ...) -- CPU_ReadMem(4 bytes @ 0xE000E004) -- Data:  01 00 00 00  returns 0x01 (0002ms, 0756ms total)
T050C 001:292 JLINK_ReadMemU32(0xE000E004, 0x0001 Items, ...) -- CPU_ReadMem(4 bytes @ 0xE000E004) -- Data:  01 00 00 00  returns 0x01 (0002ms, 0758ms total)
T050C 001:294 JLINK_WriteMem(0xE0001000, 0x001C Bytes, ...) -- Data:  01 00 00 00 00 00 00 00 00 00 00 00 00 00 00 00 ... -- CPU_WriteMem(28 bytes @ 0xE0001000)  returns 0x1C (0002ms, 0760ms total)
T050C 001:296 JLINK_ReadMem (0xE0001000, 0x001C Bytes, ...) -- CPU_ReadMem(28 bytes @ 0xE0001000) -- Data:  01 00 00 40 00 00 00 00 00 00 00 00 00 00 00 00 ...  returns 0x00 (0001ms, 0761ms total)
T050C 001:297 JLINK_Halt()  returns 0x00 (0000ms, 0761ms total)
T050C 001:297 JLINK_IsHalted()  returns TRUE (0000ms, 0761ms total)
T050C 001:304 JLINK_WriteMem(0x20000000, 0x0164 Bytes, ...) -- Data:  00 BE 0A E0 0D 78 2D 06 68 40 08 24 40 00 00 D3 ... -- CPU_WriteMem(356 bytes @ 0x20000000)  returns 0x164 (0006ms, 0767ms total)
T050C 001:310 JLINK_WriteReg(R0, 0x08000000)  returns 0x00 (0000ms, 0767ms total)
T050C 001:310 JLINK_WriteReg(R1, 0x007A1200)  returns 0x00 (0000ms, 0767ms total)
T050C 001:310 JLINK_WriteReg(R2, 0x00000001)  returns 0x00 (0000ms, 0767ms total)
T050C 001:310 JLINK_WriteReg(R3, 0x00000000)  returns 0x00 (0000ms, 0767ms total)
T050C 001:310 JLINK_WriteReg(R4, 0x00000000)  returns 0x00 (0000ms, 0767ms total)
T050C 001:310 JLINK_WriteReg(R5, 0x00000000)  returns 0x00 (0000ms, 0767ms total)
T050C 001:310 JLINK_WriteReg(R6, 0x00000000)  returns 0x00 (0000ms, 0767ms total)
T050C 001:310 JLINK_WriteReg(R7, 0x00000000)  returns 0x00 (0000ms, 0767ms total)
T050C 001:310 JLINK_WriteReg(R8, 0x00000000)  returns 0x00 (0000ms, 0767ms total)
T050C 001:310 JLINK_WriteReg(R9, 0x20000160)  returns 0x00 (0000ms, 0767ms total)
T050C 001:310 JLINK_WriteReg(R10, 0x00000000)  returns 0x00 (0000ms, 0767ms total)
T050C 001:310 JLINK_WriteReg(R11, 0x00000000)  returns 0x00 (0000ms, 0767ms total)
T050C 001:311 JLINK_WriteReg(R12, 0x00000000)  returns 0x00 (0000ms, 0768ms total)
T050C 001:311 JLINK_WriteReg(R13 (SP), 0x20000800)  returns 0x00 (0000ms, 0768ms total)
T050C 001:311 JLINK_WriteReg(R14, 0x20000001)  returns 0x00 (0000ms, 0768ms total)
T050C 001:311 JLINK_WriteReg(R15 (PC), 0x20000038)  returns 0x00 (0000ms, 0768ms total)
T050C 001:311 JLINK_WriteReg(XPSR, 0x01000000)  returns 0x00 (0000ms, 0768ms total)
T050C 001:311 JLINK_WriteReg(MSP, 0x20000800)  returns 0x00 (0000ms, 0768ms total)
T050C 001:311 JLINK_WriteReg(PSP, 0x20000800)  returns 0x00 (0000ms, 0768ms total)
T050C 001:311 JLINK_WriteReg(CFBP, 0x00000000)  returns 0x00 (0000ms, 0768ms total)
T050C 001:311 JLINK_SetBPEx(Addr = 0x20000000, Type = 0xFFFFFFF2) -- CPU_ReadMem(2 bytes @ 0x20000000)  returns 0x00000001 (0001ms, 0769ms total)
T050C 001:312 JLINK_Go() -- CPU_WriteMem(2 bytes @ 0x20000000) -- CPU_WriteMem(4 bytes @ 0xE0002008) -- CPU_WriteMem(4 bytes @ 0xE000200C) -- CPU_WriteMem(4 bytes @ 0xE0002010) -- CPU_WriteMem(4 bytes @ 0xE0002014) -- CPU_WriteMem(4 bytes @ 0xE0002018) -- CPU_WriteMem(4 bytes @ 0xE000201C) -- CPU_WriteMem(4 bytes @ 0xE0001004) (0012ms, 0781ms total)
T050C 001:324 JLINK_IsHalted() -- CPU_ReadMem(2 bytes @ 0x20000000)  returns TRUE (0006ms, 0787ms total)
T050C 001:330 JLINK_ReadReg(R15 (PC))  returns 0x20000000 (0000ms, 0781ms total)
T050C 001:330 JLINK_ClrBPEx(BPHandle = 0x00000001)  returns 0x00 (0000ms, 0781ms total)
T050C 001:330 JLINK_ReadReg(R0)  returns 0x00000000 (0000ms, 0781ms total)
T050C 001:330 JLINK_WriteReg(R0, 0x08000000)  returns 0x00 (0000ms, 0781ms total)
T050C 001:331 JLINK_WriteReg(R1, 0x007A1200)  returns 0x00 (0000ms, 0782ms total)
T050C 001:331 JLINK_WriteReg(R2, 0x00000001)  returns 0x00 (0000ms, 0782ms total)
T050C 001:331 JLINK_WriteReg(R3, 0x00000000)  returns 0x00 (0000ms, 0782ms total)
T050C 001:331 JLINK_WriteReg(R4, 0x00000000)  returns 0x00 (0000ms, 0782ms total)
T050C 001:331 JLINK_WriteReg(R5, 0x00000000)  returns 0x00 (0000ms, 0782ms total)
T050C 001:331 JLINK_WriteReg(R6, 0x00000000)  returns 0x00 (0000ms, 0782ms total)
T050C 001:331 JLINK_WriteReg(R7, 0x00000000)  returns 0x00 (0000ms, 0782ms total)
T050C 001:331 JLINK_WriteReg(R8, 0x00000000)  returns 0x00 (0000ms, 0782ms total)
T050C 001:331 JLINK_WriteReg(R9, 0x20000160)  returns 0x00 (0000ms, 0782ms total)
T050C 001:331 JLINK_WriteReg(R10, 0x00000000)  returns 0x00 (0000ms, 0782ms total)
T050C 001:331 JLINK_WriteReg(R11, 0x00000000)  returns 0x00 (0000ms, 0782ms total)
T050C 001:331 JLINK_WriteReg(R12, 0x00000000)  returns 0x00 (0000ms, 0782ms total)
T050C 001:331 JLINK_WriteReg(R13 (SP), 0x20000800)  returns 0x00 (0000ms, 0782ms total)
T050C 001:331 JLINK_WriteReg(R14, 0x20000001)  returns 0x00 (0000ms, 0782ms total)
T050C 001:331 JLINK_WriteReg(R15 (PC), 0x2000007C)  returns 0x00 (0000ms, 0782ms total)
T050C 001:331 JLINK_WriteReg(XPSR, 0x01000000)  returns 0x00 (0000ms, 0782ms total)
T050C 001:331 JLINK_WriteReg(MSP, 0x20000800)  returns 0x00 (0001ms, 0783ms total)
T050C 001:332 JLINK_WriteReg(PSP, 0x20000800)  returns 0x00 (0000ms, 0783ms total)
T050C 001:332 JLINK_WriteReg(CFBP, 0x00000000)  returns 0x00 (0000ms, 0783ms total)
T050C 001:332 JLINK_SetBPEx(Addr = 0x20000000, Type = 0xFFFFFFF2)  returns 0x00000002 (0000ms, 0783ms total)
T050C 001:332 JLINK_Go() (0003ms, 0786ms total)
T050C 001:335 JLINK_IsHalted()  returns FALSE (0001ms, 0787ms total)
T050C 001:534 JLINK_IsHalted() -- CPU_ReadMem(2 bytes @ 0x20000000)  returns TRUE (0006ms, 0792ms total)
T050C 001:540 JLINK_ReadReg(R15 (PC))  returns 0x20000000 (0000ms, 0786ms total)
T050C 001:540 JLINK_ClrBPEx(BPHandle = 0x00000002)  returns 0x00 (0000ms, 0786ms total)
T050C 001:540 JLINK_ReadReg(R0)  returns 0x00000000 (0000ms, 0786ms total)
T050C 001:593 JLINK_WriteReg(R0, 0x00000001)  returns 0x00 (0000ms, 0786ms total)
T050C 001:593 JLINK_WriteReg(R1, 0x007A1200)  returns 0x00 (0000ms, 0786ms total)
T050C 001:593 JLINK_WriteReg(R2, 0x00000001)  returns 0x00 (0000ms, 0786ms total)
T050C 001:593 JLINK_WriteReg(R3, 0x00000000)  returns 0x00 (0000ms, 0786ms total)
T050C 001:593 JLINK_WriteReg(R4, 0x00000000)  returns 0x00 (0000ms, 0786ms total)
T050C 001:593 JLINK_WriteReg(R5, 0x00000000)  returns 0x00 (0000ms, 0786ms total)
T050C 001:593 JLINK_WriteReg(R6, 0x00000000)  returns 0x00 (0000ms, 0786ms total)
T050C 001:594 JLINK_WriteReg(R7, 0x00000000)  returns 0x00 (0000ms, 0787ms total)
T050C 001:594 JLINK_WriteReg(R8, 0x00000000)  returns 0x00 (0000ms, 0787ms total)
T050C 001:594 JLINK_WriteReg(R9, 0x20000160)  returns 0x00 (0000ms, 0787ms total)
T050C 001:594 JLINK_WriteReg(R10, 0x00000000)  returns 0x00 (0000ms, 0787ms total)
T050C 001:594 JLINK_WriteReg(R11, 0x00000000)  returns 0x00 (0000ms, 0787ms total)
T050C 001:594 JLINK_WriteReg(R12, 0x00000000)  returns 0x00 (0000ms, 0787ms total)
T050C 001:594 JLINK_WriteReg(R13 (SP), 0x20000800)  returns 0x00 (0000ms, 0787ms total)
T050C 001:594 JLINK_WriteReg(R14, 0x20000001)  returns 0x00 (0000ms, 0787ms total)
T050C 001:594 JLINK_WriteReg(R15 (PC), 0x2000006A)  returns 0x00 (0000ms, 0787ms total)
T050C 001:594 JLINK_WriteReg(XPSR, 0x01000000)  returns 0x00 (0000ms, 0787ms total)
T050C 001:594 JLINK_WriteReg(MSP, 0x20000800)  returns 0x00 (0000ms, 0787ms total)
T050C 001:594 JLINK_WriteReg(PSP, 0x20000800)  returns 0x00 (0000ms, 0787ms total)
T050C 001:594 JLINK_WriteReg(CFBP, 0x00000000)  returns 0x00 (0000ms, 0787ms total)
T050C 001:594 JLINK_SetBPEx(Addr = 0x20000000, Type = 0xFFFFFFF2)  returns 0x00000003 (0000ms, 0787ms total)
T050C 001:594 JLINK_Go() (0003ms, 0790ms total)
T050C 001:597 JLINK_IsHalted() -- CPU_ReadMem(2 bytes @ 0x20000000)  returns TRUE (0005ms, 0795ms total)
T050C 001:602 JLINK_ReadReg(R15 (PC))  returns 0x20000000 (0000ms, 0790ms total)
T050C 001:602 JLINK_ClrBPEx(BPHandle = 0x00000003)  returns 0x00 (0000ms, 0790ms total)
T050C 001:602 JLINK_ReadReg(R0)  returns 0x00000000 (0000ms, 0790ms total)
T050C 001:612 JLINK_WriteMem(0x20000000, 0x0164 Bytes, ...) -- Data:  00 BE 0A E0 0D 78 2D 06 68 40 08 24 40 00 00 D3 ... -- CPU_WriteMem(356 bytes @ 0x20000000)  returns 0x164 (0006ms, 0796ms total)
T050C 001:618 JLINK_WriteReg(R0, 0x08000000)  returns 0x00 (0000ms, 0796ms total)
T050C 001:618 JLINK_WriteReg(R1, 0x007A1200)  returns 0x00 (0000ms, 0796ms total)
T050C 001:618 JLINK_WriteReg(R2, 0x00000002)  returns 0x00 (0000ms, 0796ms total)
T050C 001:618 JLINK_WriteReg(R3, 0x00000000)  returns 0x00 (0000ms, 0796ms total)
T050C 001:618 JLINK_WriteReg(R4, 0x00000000)  returns 0x00 (0000ms, 0796ms total)
T050C 001:618 JLINK_WriteReg(R5, 0x00000000)  returns 0x00 (0000ms, 0796ms total)
T050C 001:618 JLINK_WriteReg(R6, 0x00000000)  returns 0x00 (0000ms, 0796ms total)
T050C 001:618 JLINK_WriteReg(R7, 0x00000000)  returns 0x00 (0000ms, 0796ms total)
T050C 001:618 JLINK_WriteReg(R8, 0x00000000)  returns 0x00 (0000ms, 0796ms total)
T050C 001:618 JLINK_WriteReg(R9, 0x20000160)  returns 0x00 (0000ms, 0796ms total)
T050C 001:618 JLINK_WriteReg(R10, 0x00000000)  returns 0x00 (0000ms, 0796ms total)
T050C 001:618 JLINK_WriteReg(R11, 0x00000000)  returns 0x00 (0000ms, 0796ms total)
T050C 001:618 JLINK_WriteReg(R12, 0x00000000)  returns 0x00 (0001ms, 0797ms total)
T050C 001:619 JLINK_WriteReg(R13 (SP), 0x20000800)  returns 0x00 (0000ms, 0797ms total)
T050C 001:619 JLINK_WriteReg(R14, 0x20000001)  returns 0x00 (0000ms, 0797ms total)
T050C 001:619 JLINK_WriteReg(R15 (PC), 0x20000038)  returns 0x00 (0000ms, 0797ms total)
T050C 001:619 JLINK_WriteReg(XPSR, 0x01000000)  returns 0x00 (0000ms, 0797ms total)
T050C 001:619 JLINK_WriteReg(MSP, 0x20000800)  returns 0x00 (0000ms, 0797ms total)
T050C 001:619 JLINK_WriteReg(PSP, 0x20000800)  returns 0x00 (0000ms, 0797ms total)
T050C 001:619 JLINK_WriteReg(CFBP, 0x00000000)  returns 0x00 (0000ms, 0797ms total)
T050C 001:619 JLINK_SetBPEx(Addr = 0x20000000, Type = 0xFFFFFFF2) -- CPU_ReadMem(2 bytes @ 0x20000000)  returns 0x00000004 (0001ms, 0798ms total)
T050C 001:620 JLINK_Go() -- CPU_WriteMem(2 bytes @ 0x20000000) (0005ms, 0803ms total)
T050C 001:625 JLINK_IsHalted() -- CPU_ReadMem(2 bytes @ 0x20000000)  returns TRUE (0006ms, 0809ms total)
T050C 001:631 JLINK_ReadReg(R15 (PC))  returns 0x20000000 (0000ms, 0803ms total)
T050C 001:631 JLINK_ClrBPEx(BPHandle = 0x00000004)  returns 0x00 (0000ms, 0803ms total)
T050C 001:631 JLINK_ReadReg(R0)  returns 0x00000000 (0000ms, 0803ms total)
T050C 001:632 JLINK_WriteMem(0x20000164, 0x0400 Bytes, ...) -- Data:  20 07 00 20 C9 02 00 08 61 01 00 08 63 01 00 08 ... -- CPU_WriteMem(1024 bytes @ 0x20000164)  returns 0x400 (0013ms, 0816ms total)
T050C 001:645 JLINK_WriteReg(R0, 0x08000000)  returns 0x00 (0000ms, 0816ms total)
T050C 001:645 JLINK_WriteReg(R1, 0x00000400)  returns 0x00 (0000ms, 0816ms total)
T050C 001:645 JLINK_WriteReg(R2, 0x20000164)  returns 0x00 (0000ms, 0816ms total)
T050C 001:645 JLINK_WriteReg(R3, 0x00000000)  returns 0x00 (0000ms, 0816ms total)
T050C 001:645 JLINK_WriteReg(R4, 0x00000000)  returns 0x00 (0000ms, 0816ms total)
T050C 001:645 JLINK_WriteReg(R5, 0x00000000)  returns 0x00 (0000ms, 0816ms total)
T050C 001:645 JLINK_WriteReg(R6, 0x00000000)  returns 0x00 (0000ms, 0816ms total)
T050C 001:645 JLINK_WriteReg(R7, 0x00000000)  returns 0x00 (0000ms, 0816ms total)
T050C 001:645 JLINK_WriteReg(R8, 0x00000000)  returns 0x00 (0000ms, 0816ms total)
T050C 001:645 JLINK_WriteReg(R9, 0x20000160)  returns 0x00 (0000ms, 0816ms total)
T050C 001:645 JLINK_WriteReg(R10, 0x00000000)  returns 0x00 (0000ms, 0816ms total)
T050C 001:645 JLINK_WriteReg(R11, 0x00000000)  returns 0x00 (0000ms, 0816ms total)
T050C 001:646 JLINK_WriteReg(R12, 0x00000000)  returns 0x00 (0000ms, 0817ms total)
T050C 001:646 JLINK_WriteReg(R13 (SP), 0x20000800)  returns 0x00 (0000ms, 0817ms total)
T050C 001:646 JLINK_WriteReg(R14, 0x20000001)  returns 0x00 (0000ms, 0817ms total)
T050C 001:646 JLINK_WriteReg(R15 (PC), 0x200000F4)  returns 0x00 (0000ms, 0817ms total)
T050C 001:646 JLINK_WriteReg(XPSR, 0x01000000)  returns 0x00 (0000ms, 0817ms total)
T050C 001:646 JLINK_WriteReg(MSP, 0x20000800)  returns 0x00 (0000ms, 0817ms total)
T050C 001:646 JLINK_WriteReg(PSP, 0x20000800)  returns 0x00 (0000ms, 0817ms total)
T050C 001:646 JLINK_WriteReg(CFBP, 0x00000000)  returns 0x00 (0000ms, 0817ms total)
T050C 001:646 JLINK_SetBPEx(Addr = 0x20000000, Type = 0xFFFFFFF2)  returns 0x00000005 (0000ms, 0817ms total)
T050C 001:646 JLINK_Go() (0003ms, 0820ms total)
T050C 001:649 JLINK_IsHalted()  returns FALSE (0001ms, 0821ms total)
T050C 001:742 JLINK_IsHalted() -- CPU_ReadMem(2 bytes @ 0x20000000)  returns TRUE (0006ms, 0826ms total)
T050C 001:748 JLINK_ReadReg(R15 (PC))  returns 0x20000000 (0000ms, 0820ms total)
T050C 001:748 JLINK_ClrBPEx(BPHandle = 0x00000005)  returns 0x00 (0000ms, 0820ms total)
T050C 001:748 JLINK_ReadReg(R0)  returns 0x00000000 (0000ms, 0820ms total)
T050C 001:750 JLINK_WriteMem(0x20000164, 0x0400 Bytes, ...) -- Data:  02 68 38 D0 22 F0 40 02 02 60 0A 7A 01 2A 02 68 ... -- CPU_WriteMem(1024 bytes @ 0x20000164)  returns 0x400 (0014ms, 0834ms total)
T050C 001:764 JLINK_WriteReg(R0, 0x08000400)  returns 0x00 (0000ms, 0834ms total)
T050C 001:764 JLINK_WriteReg(R1, 0x00000400)  returns 0x00 (0000ms, 0834ms total)
T050C 001:764 JLINK_WriteReg(R2, 0x20000164)  returns 0x00 (0000ms, 0834ms total)
T050C 001:764 JLINK_WriteReg(R3, 0x00000000)  returns 0x00 (0000ms, 0834ms total)
T050C 001:764 JLINK_WriteReg(R4, 0x00000000)  returns 0x00 (0000ms, 0834ms total)
T050C 001:764 JLINK_WriteReg(R5, 0x00000000)  returns 0x00 (0000ms, 0834ms total)
T050C 001:764 JLINK_WriteReg(R6, 0x00000000)  returns 0x00 (0000ms, 0834ms total)
T050C 001:764 JLINK_WriteReg(R7, 0x00000000)  returns 0x00 (0000ms, 0834ms total)
T050C 001:764 JLINK_WriteReg(R8, 0x00000000)  returns 0x00 (0000ms, 0834ms total)
T050C 001:764 JLINK_WriteReg(R9, 0x20000160)  returns 0x00 (0000ms, 0834ms total)
T050C 001:764 JLINK_WriteReg(R10, 0x00000000)  returns 0x00 (0000ms, 0834ms total)
T050C 001:764 JLINK_WriteReg(R11, 0x00000000)  returns 0x00 (0000ms, 0834ms total)
T050C 001:764 JLINK_WriteReg(R12, 0x00000000)  returns 0x00 (0000ms, 0834ms total)
T050C 001:764 JLINK_WriteReg(R13 (SP), 0x20000800)  returns 0x00 (0000ms, 0834ms total)
T050C 001:764 JLINK_WriteReg(R14, 0x20000001)  returns 0x00 (0000ms, 0834ms total)
T050C 001:764 JLINK_WriteReg(R15 (PC), 0x200000F4)  returns 0x00 (0000ms, 0834ms total)
T050C 001:765 JLINK_WriteReg(XPSR, 0x01000000)  returns 0x00 (0000ms, 0835ms total)
T050C 001:765 JLINK_WriteReg(MSP, 0x20000800)  returns 0x00 (0000ms, 0835ms total)
T050C 001:765 JLINK_WriteReg(PSP, 0x20000800)  returns 0x00 (0000ms, 0835ms total)
T050C 001:765 JLINK_WriteReg(CFBP, 0x00000000)  returns 0x00 (0000ms, 0835ms total)
T050C 001:765 JLINK_SetBPEx(Addr = 0x20000000, Type = 0xFFFFFFF2)  returns 0x00000006 (0000ms, 0835ms total)
T050C 001:765 JLINK_Go() (0003ms, 0838ms total)
T050C 001:768 JLINK_IsHalted()  returns FALSE (0001ms, 0839ms total)
T050C 001:838 JLINK_IsHalted() -- CPU_ReadMem(2 bytes @ 0x20000000)  returns TRUE (0006ms, 0844ms total)
T050C 001:844 JLINK_ReadReg(R15 (PC))  returns 0x20000000 (0000ms, 0838ms total)
T050C 001:844 JLINK_ClrBPEx(BPHandle = 0x00000006)  returns 0x00 (0000ms, 0838ms total)
T050C 001:844 JLINK_ReadReg(R0)  returns 0x00000000 (0000ms, 0838ms total)
T050C 001:845 JLINK_WriteMem(0x20000164, 0x0400 Bytes, ...) -- Data:  01 29 17 D0 02 29 24 D0 3A E0 01 68 21 F0 02 01 ... -- CPU_WriteMem(1024 bytes @ 0x20000164)  returns 0x400 (0014ms, 0852ms total)
T050C 001:859 JLINK_WriteReg(R0, 0x08000800)  returns 0x00 (0000ms, 0852ms total)
T050C 001:859 JLINK_WriteReg(R1, 0x00000400)  returns 0x00 (0000ms, 0852ms total)
T050C 001:859 JLINK_WriteReg(R2, 0x20000164)  returns 0x00 (0000ms, 0852ms total)
T050C 001:859 JLINK_WriteReg(R3, 0x00000000)  returns 0x00 (0000ms, 0852ms total)
T050C 001:859 JLINK_WriteReg(R4, 0x00000000)  returns 0x00 (0000ms, 0852ms total)
T050C 001:859 JLINK_WriteReg(R5, 0x00000000)  returns 0x00 (0000ms, 0852ms total)
T050C 001:859 JLINK_WriteReg(R6, 0x00000000)  returns 0x00 (0000ms, 0852ms total)
T050C 001:859 JLINK_WriteReg(R7, 0x00000000)  returns 0x00 (0000ms, 0852ms total)
T050C 001:859 JLINK_WriteReg(R8, 0x00000000)  returns 0x00 (0000ms, 0852ms total)
T050C 001:859 JLINK_WriteReg(R9, 0x20000160)  returns 0x00 (0000ms, 0852ms total)
T050C 001:859 JLINK_WriteReg(R10, 0x00000000)  returns 0x00 (0000ms, 0852ms total)
T050C 001:859 JLINK_WriteReg(R11, 0x00000000)  returns 0x00 (0000ms, 0852ms total)
T050C 001:859 JLINK_WriteReg(R12, 0x00000000)  returns 0x00 (0001ms, 0853ms total)
T050C 001:860 JLINK_WriteReg(R13 (SP), 0x20000800)  returns 0x00 (0000ms, 0853ms total)
T050C 001:860 JLINK_WriteReg(R14, 0x20000001)  returns 0x00 (0000ms, 0853ms total)
T050C 001:860 JLINK_WriteReg(R15 (PC), 0x200000F4)  returns 0x00 (0000ms, 0853ms total)
T050C 001:860 JLINK_WriteReg(XPSR, 0x01000000)  returns 0x00 (0000ms, 0853ms total)
T050C 001:860 JLINK_WriteReg(MSP, 0x20000800)  returns 0x00 (0000ms, 0853ms total)
T050C 001:860 JLINK_WriteReg(PSP, 0x20000800)  returns 0x00 (0000ms, 0853ms total)
T050C 001:860 JLINK_WriteReg(CFBP, 0x00000000)  returns 0x00 (0000ms, 0853ms total)
T050C 001:860 JLINK_SetBPEx(Addr = 0x20000000, Type = 0xFFFFFFF2)  returns 0x00000007 (0000ms, 0853ms total)
T050C 001:860 JLINK_Go() (0003ms, 0856ms total)
T050C 001:863 JLINK_IsHalted()  returns FALSE (0001ms, 0857ms total)
T050C 001:871 JLINK_IsHalted()  returns FALSE (0001ms, 0857ms total)
T050C 001:874 JLINK_IsHalted()  returns FALSE (0001ms, 0857ms total)
T050C 001:888 JLINK_IsHalted()  returns FALSE (0001ms, 0857ms total)
T050C 001:891 JLINK_IsHalted()  returns FALSE (0001ms, 0857ms total)
T050C 001:938 JLINK_IsHalted() -- CPU_ReadMem(2 bytes @ 0x20000000)  returns TRUE (0006ms, 0862ms total)
T050C 001:944 JLINK_ReadReg(R15 (PC))  returns 0x20000000 (0000ms, 0856ms total)
T050C 001:944 JLINK_ClrBPEx(BPHandle = 0x00000007)  returns 0x00 (0000ms, 0856ms total)
T050C 001:944 JLINK_ReadReg(R0)  returns 0x00000000 (0000ms, 0856ms total)
T050C 001:945 JLINK_WriteMem(0x20000164, 0x0400 Bytes, ...) -- Data:  08 60 70 47 30 B5 44 4A 51 68 48 4B 11 F0 0C 01 ... -- CPU_WriteMem(1024 bytes @ 0x20000164)  returns 0x400 (0013ms, 0869ms total)
T050C 001:959 JLINK_WriteReg(R0, 0x08000C00)  returns 0x00 (0000ms, 0869ms total)
T050C 001:959 JLINK_WriteReg(R1, 0x00000400)  returns 0x00 (0000ms, 0869ms total)
T050C 001:959 JLINK_WriteReg(R2, 0x20000164)  returns 0x00 (0000ms, 0869ms total)
T050C 001:959 JLINK_WriteReg(R3, 0x00000000)  returns 0x00 (0000ms, 0869ms total)
T050C 001:959 JLINK_WriteReg(R4, 0x00000000)  returns 0x00 (0000ms, 0869ms total)
T050C 001:959 JLINK_WriteReg(R5, 0x00000000)  returns 0x00 (0000ms, 0869ms total)
T050C 001:959 JLINK_WriteReg(R6, 0x00000000)  returns 0x00 (0000ms, 0869ms total)
T050C 001:959 JLINK_WriteReg(R7, 0x00000000)  returns 0x00 (0000ms, 0869ms total)
T050C 001:959 JLINK_WriteReg(R8, 0x00000000)  returns 0x00 (0000ms, 0869ms total)
T050C 001:959 JLINK_WriteReg(R9, 0x20000160)  returns 0x00 (0000ms, 0869ms total)
T050C 001:959 JLINK_WriteReg(R10, 0x00000000)  returns 0x00 (0000ms, 0869ms total)
T050C 001:959 JLINK_WriteReg(R11, 0x00000000)  returns 0x00 (0000ms, 0869ms total)
T050C 001:959 JLINK_WriteReg(R12, 0x00000000)  returns 0x00 (0000ms, 0869ms total)
T050C 001:959 JLINK_WriteReg(R13 (SP), 0x20000800)  returns 0x00 (0000ms, 0869ms total)
T050C 001:960 JLINK_WriteReg(R14, 0x20000001)  returns 0x00 (0000ms, 0870ms total)
T050C 001:960 JLINK_WriteReg(R15 (PC), 0x200000F4)  returns 0x00 (0000ms, 0870ms total)
T050C 001:960 JLINK_WriteReg(XPSR, 0x01000000)  returns 0x00 (0000ms, 0870ms total)
T050C 001:960 JLINK_WriteReg(MSP, 0x20000800)  returns 0x00 (0000ms, 0870ms total)
T050C 001:960 JLINK_WriteReg(PSP, 0x20000800)  returns 0x00 (0000ms, 0870ms total)
T050C 001:960 JLINK_WriteReg(CFBP, 0x00000000)  returns 0x00 (0000ms, 0870ms total)
T050C 001:960 JLINK_SetBPEx(Addr = 0x20000000, Type = 0xFFFFFFF2)  returns 0x00000008 (0000ms, 0870ms total)
T050C 001:960 JLINK_Go() (0003ms, 0873ms total)
T050C 001:963 JLINK_IsHalted()  returns FALSE (0001ms, 0874ms total)
T050C 001:991 JLINK_IsHalted()  returns FALSE (0001ms, 0874ms total)
T050C 001:994 JLINK_IsHalted() -- CPU_ReadMem(2 bytes @ 0x20000000)  returns TRUE (0006ms, 0879ms total)
T050C 002:000 JLINK_ReadReg(R15 (PC))  returns 0x20000000 (0000ms, 0873ms total)
T050C 002:000 JLINK_ClrBPEx(BPHandle = 0x00000008)  returns 0x00 (0000ms, 0873ms total)
T050C 002:000 JLINK_ReadReg(R0)  returns 0x00000000 (0000ms, 0873ms total)
T050C 002:001 JLINK_WriteMem(0x20000164, 0x0400 Bytes, ...) -- Data:  FF F7 66 FE 00 21 10 20 3F E0 E2 49 88 42 06 D1 ... -- CPU_WriteMem(1024 bytes @ 0x20000164)  returns 0x400 (0014ms, 0887ms total)
T050C 002:015 JLINK_WriteReg(R0, 0x08001000)  returns 0x00 (0000ms, 0887ms total)
T050C 002:015 JLINK_WriteReg(R1, 0x00000400)  returns 0x00 (0000ms, 0887ms total)
T050C 002:015 JLINK_WriteReg(R2, 0x20000164)  returns 0x00 (0000ms, 0887ms total)
T050C 002:015 JLINK_WriteReg(R3, 0x00000000)  returns 0x00 (0000ms, 0887ms total)
T050C 002:015 JLINK_WriteReg(R4, 0x00000000)  returns 0x00 (0000ms, 0887ms total)
T050C 002:015 JLINK_WriteReg(R5, 0x00000000)  returns 0x00 (0000ms, 0887ms total)
T050C 002:015 JLINK_WriteReg(R6, 0x00000000)  returns 0x00 (0000ms, 0887ms total)
T050C 002:015 JLINK_WriteReg(R7, 0x00000000)  returns 0x00 (0000ms, 0887ms total)
T050C 002:015 JLINK_WriteReg(R8, 0x00000000)  returns 0x00 (0000ms, 0887ms total)
T050C 002:015 JLINK_WriteReg(R9, 0x20000160)  returns 0x00 (0000ms, 0887ms total)
T050C 002:015 JLINK_WriteReg(R10, 0x00000000)  returns 0x00 (0000ms, 0887ms total)
T050C 002:015 JLINK_WriteReg(R11, 0x00000000)  returns 0x00 (0000ms, 0887ms total)
T050C 002:015 JLINK_WriteReg(R12, 0x00000000)  returns 0x00 (0000ms, 0887ms total)
T050C 002:015 JLINK_WriteReg(R13 (SP), 0x20000800)  returns 0x00 (0000ms, 0887ms total)
T050C 002:015 JLINK_WriteReg(R14, 0x20000001)  returns 0x00 (0000ms, 0887ms total)
T050C 002:015 JLINK_WriteReg(R15 (PC), 0x200000F4)  returns 0x00 (0000ms, 0887ms total)
T050C 002:015 JLINK_WriteReg(XPSR, 0x01000000)  returns 0x00 (0001ms, 0888ms total)
T050C 002:016 JLINK_WriteReg(MSP, 0x20000800)  returns 0x00 (0000ms, 0888ms total)
T050C 002:016 JLINK_WriteReg(PSP, 0x20000800)  returns 0x00 (0000ms, 0888ms total)
T050C 002:016 JLINK_WriteReg(CFBP, 0x00000000)  returns 0x00 (0000ms, 0888ms total)
T050C 002:016 JLINK_SetBPEx(Addr = 0x20000000, Type = 0xFFFFFFF2)  returns 0x00000009 (0000ms, 0888ms total)
T050C 002:016 JLINK_Go() (0003ms, 0891ms total)
T050C 002:019 JLINK_IsHalted()  returns FALSE (0001ms, 0892ms total)
T050C 002:072 JLINK_IsHalted() -- CPU_ReadMem(2 bytes @ 0x20000000)  returns TRUE (0006ms, 0897ms total)
T050C 002:078 JLINK_ReadReg(R15 (PC))  returns 0x20000000 (0000ms, 0891ms total)
T050C 002:078 JLINK_ClrBPEx(BPHandle = 0x00000009)  returns 0x00 (0000ms, 0891ms total)
T050C 002:078 JLINK_ReadReg(R0)  returns 0x00000000 (0000ms, 0891ms total)
T050C 002:080 JLINK_WriteMem(0x20000164, 0x0400 Bytes, ...) -- Data:  90 42 0E D0 F7 4A 90 42 0B D0 B0 F1 80 4F 08 D0 ... -- CPU_WriteMem(1024 bytes @ 0x20000164)  returns 0x400 (0014ms, 0905ms total)
T050C 002:094 JLINK_WriteReg(R0, 0x08001400)  returns 0x00 (0000ms, 0905ms total)
T050C 002:094 JLINK_WriteReg(R1, 0x00000400)  returns 0x00 (0000ms, 0905ms total)
T050C 002:094 JLINK_WriteReg(R2, 0x20000164)  returns 0x00 (0000ms, 0905ms total)
T050C 002:094 JLINK_WriteReg(R3, 0x00000000)  returns 0x00 (0000ms, 0905ms total)
T050C 002:094 JLINK_WriteReg(R4, 0x00000000)  returns 0x00 (0000ms, 0905ms total)
T050C 002:094 JLINK_WriteReg(R5, 0x00000000)  returns 0x00 (0000ms, 0905ms total)
T050C 002:094 JLINK_WriteReg(R6, 0x00000000)  returns 0x00 (0000ms, 0905ms total)
T050C 002:094 JLINK_WriteReg(R7, 0x00000000)  returns 0x00 (0000ms, 0905ms total)
T050C 002:094 JLINK_WriteReg(R8, 0x00000000)  returns 0x00 (0000ms, 0905ms total)
T050C 002:094 JLINK_WriteReg(R9, 0x20000160)  returns 0x00 (0000ms, 0905ms total)
T050C 002:095 JLINK_WriteReg(R10, 0x00000000)  returns 0x00 (0000ms, 0906ms total)
T050C 002:095 JLINK_WriteReg(R11, 0x00000000)  returns 0x00 (0000ms, 0906ms total)
T050C 002:095 JLINK_WriteReg(R12, 0x00000000)  returns 0x00 (0000ms, 0906ms total)
T050C 002:095 JLINK_WriteReg(R13 (SP), 0x20000800)  returns 0x00 (0000ms, 0906ms total)
T050C 002:095 JLINK_WriteReg(R14, 0x20000001)  returns 0x00 (0000ms, 0906ms total)
T050C 002:095 JLINK_WriteReg(R15 (PC), 0x200000F4)  returns 0x00 (0000ms, 0906ms total)
T050C 002:095 JLINK_WriteReg(XPSR, 0x01000000)  returns 0x00 (0000ms, 0906ms total)
T050C 002:095 JLINK_WriteReg(MSP, 0x20000800)  returns 0x00 (0000ms, 0906ms total)
T050C 002:095 JLINK_WriteReg(PSP, 0x20000800)  returns 0x00 (0000ms, 0906ms total)
T050C 002:095 JLINK_WriteReg(CFBP, 0x00000000)  returns 0x00 (0000ms, 0906ms total)
T050C 002:095 JLINK_SetBPEx(Addr = 0x20000000, Type = 0xFFFFFFF2)  returns 0x0000000A (0000ms, 0906ms total)
T050C 002:095 JLINK_Go() (0003ms, 0909ms total)
T050C 002:098 JLINK_IsHalted()  returns FALSE (0001ms, 0910ms total)
T050C 002:109 JLINK_IsHalted()  returns FALSE (0001ms, 0910ms total)
T050C 002:170 JLINK_IsHalted() -- CPU_ReadMem(2 bytes @ 0x20000000)  returns TRUE (0006ms, 0915ms total)
T050C 002:176 JLINK_ReadReg(R15 (PC))  returns 0x20000000 (0001ms, 0910ms total)
T050C 002:177 JLINK_ClrBPEx(BPHandle = 0x0000000A)  returns 0x00 (0000ms, 0910ms total)
T050C 002:177 JLINK_ReadReg(R0)  returns 0x00000000 (0000ms, 0910ms total)
T050C 002:178 JLINK_WriteMem(0x20000164, 0x0400 Bytes, ...) -- Data:  01 21 11 43 01 83 EA E7 82 8B 22 F0 08 02 0A 43 ... -- CPU_WriteMem(1024 bytes @ 0x20000164)  returns 0x400 (0013ms, 0923ms total)
T050C 002:191 JLINK_WriteReg(R0, 0x08001800)  returns 0x00 (0000ms, 0923ms total)
T050C 002:191 JLINK_WriteReg(R1, 0x00000400)  returns 0x00 (0000ms, 0923ms total)
T050C 002:191 JLINK_WriteReg(R2, 0x20000164)  returns 0x00 (0000ms, 0923ms total)
T050C 002:191 JLINK_WriteReg(R3, 0x00000000)  returns 0x00 (0000ms, 0923ms total)
T050C 002:191 JLINK_WriteReg(R4, 0x00000000)  returns 0x00 (0000ms, 0923ms total)
T050C 002:191 JLINK_WriteReg(R5, 0x00000000)  returns 0x00 (0000ms, 0923ms total)
T050C 002:191 JLINK_WriteReg(R6, 0x00000000)  returns 0x00 (0000ms, 0923ms total)
T050C 002:191 JLINK_WriteReg(R7, 0x00000000)  returns 0x00 (0000ms, 0923ms total)
T050C 002:191 JLINK_WriteReg(R8, 0x00000000)  returns 0x00 (0000ms, 0923ms total)
T050C 002:191 JLINK_WriteReg(R9, 0x20000160)  returns 0x00 (0000ms, 0923ms total)
T050C 002:191 JLINK_WriteReg(R10, 0x00000000)  returns 0x00 (0001ms, 0924ms total)
T050C 002:192 JLINK_WriteReg(R11, 0x00000000)  returns 0x00 (0000ms, 0924ms total)
T050C 002:192 JLINK_WriteReg(R12, 0x00000000)  returns 0x00 (0000ms, 0924ms total)
T050C 002:192 JLINK_WriteReg(R13 (SP), 0x20000800)  returns 0x00 (0000ms, 0924ms total)
T050C 002:192 JLINK_WriteReg(R14, 0x20000001)  returns 0x00 (0000ms, 0924ms total)
T050C 002:192 JLINK_WriteReg(R15 (PC), 0x200000F4)  returns 0x00 (0000ms, 0924ms total)
T050C 002:192 JLINK_WriteReg(XPSR, 0x01000000)  returns 0x00 (0000ms, 0924ms total)
T050C 002:192 JLINK_WriteReg(MSP, 0x20000800)  returns 0x00 (0000ms, 0924ms total)
T050C 002:192 JLINK_WriteReg(PSP, 0x20000800)  returns 0x00 (0000ms, 0924ms total)
T050C 002:192 JLINK_WriteReg(CFBP, 0x00000000)  returns 0x00 (0000ms, 0924ms total)
T050C 002:192 JLINK_SetBPEx(Addr = 0x20000000, Type = 0xFFFFFFF2)  returns 0x0000000B (0000ms, 0924ms total)
T050C 002:192 JLINK_Go() (0003ms, 0927ms total)
T050C 002:195 JLINK_IsHalted()  returns FALSE (0001ms, 0928ms total)
T050C 002:212 JLINK_IsHalted()  returns FALSE (0001ms, 0928ms total)
T050C 002:215 JLINK_IsHalted()  returns FALSE (0001ms, 0928ms total)
T050C 002:218 JLINK_IsHalted()  returns FALSE (0001ms, 0928ms total)
T050C 002:278 JLINK_IsHalted() -- CPU_ReadMem(2 bytes @ 0x20000000)  returns TRUE (0006ms, 0933ms total)
T050C 002:284 JLINK_ReadReg(R15 (PC))  returns 0x20000000 (0000ms, 0927ms total)
T050C 002:284 JLINK_ClrBPEx(BPHandle = 0x0000000B)  returns 0x00 (0000ms, 0927ms total)
T050C 002:284 JLINK_ReadReg(R0)  returns 0x00000000 (0000ms, 0927ms total)
T050C 002:286 JLINK_WriteMem(0x20000164, 0x0400 Bytes, ...) -- Data:  07 D0 14 30 00 2A 02 68 05 D0 0A 43 04 E0 0C 30 ... -- CPU_WriteMem(1024 bytes @ 0x20000164)  returns 0x400 (0013ms, 0940ms total)
T050C 002:299 JLINK_WriteReg(R0, 0x08001C00)  returns 0x00 (0000ms, 0940ms total)
T050C 002:299 JLINK_WriteReg(R1, 0x00000400)  returns 0x00 (0000ms, 0940ms total)
T050C 002:299 JLINK_WriteReg(R2, 0x20000164)  returns 0x00 (0000ms, 0940ms total)
T050C 002:299 JLINK_WriteReg(R3, 0x00000000)  returns 0x00 (0000ms, 0940ms total)
T050C 002:299 JLINK_WriteReg(R4, 0x00000000)  returns 0x00 (0000ms, 0940ms total)
T050C 002:299 JLINK_WriteReg(R5, 0x00000000)  returns 0x00 (0000ms, 0940ms total)
T050C 002:299 JLINK_WriteReg(R6, 0x00000000)  returns 0x00 (0000ms, 0940ms total)
T050C 002:299 JLINK_WriteReg(R7, 0x00000000)  returns 0x00 (0000ms, 0940ms total)
T050C 002:299 JLINK_WriteReg(R8, 0x00000000)  returns 0x00 (0000ms, 0940ms total)
T050C 002:299 JLINK_WriteReg(R9, 0x20000160)  returns 0x00 (0000ms, 0940ms total)
T050C 002:299 JLINK_WriteReg(R10, 0x00000000)  returns 0x00 (0000ms, 0940ms total)
T050C 002:299 JLINK_WriteReg(R11, 0x00000000)  returns 0x00 (0000ms, 0940ms total)
T050C 002:299 JLINK_WriteReg(R12, 0x00000000)  returns 0x00 (0000ms, 0940ms total)
T050C 002:299 JLINK_WriteReg(R13 (SP), 0x20000800)  returns 0x00 (0000ms, 0940ms total)
T050C 002:299 JLINK_WriteReg(R14, 0x20000001)  returns 0x00 (0001ms, 0941ms total)
T050C 002:300 JLINK_WriteReg(R15 (PC), 0x200000F4)  returns 0x00 (0000ms, 0941ms total)
T050C 002:300 JLINK_WriteReg(XPSR, 0x01000000)  returns 0x00 (0000ms, 0941ms total)
T050C 002:300 JLINK_WriteReg(MSP, 0x20000800)  returns 0x00 (0000ms, 0941ms total)
T050C 002:300 JLINK_WriteReg(PSP, 0x20000800)  returns 0x00 (0000ms, 0941ms total)
T050C 002:300 JLINK_WriteReg(CFBP, 0x00000000)  returns 0x00 (0000ms, 0941ms total)
T050C 002:300 JLINK_SetBPEx(Addr = 0x20000000, Type = 0xFFFFFFF2)  returns 0x0000000C (0000ms, 0941ms total)
T050C 002:300 JLINK_Go() (0003ms, 0944ms total)
T050C 002:303 JLINK_IsHalted()  returns FALSE (0001ms, 0945ms total)
T050C 002:320 JLINK_IsHalted()  returns FALSE (0001ms, 0945ms total)
T050C 002:323 JLINK_IsHalted()  returns FALSE (0001ms, 0945ms total)
T050C 002:326 JLINK_IsHalted()  returns FALSE (0001ms, 0945ms total)
T050C 002:388 JLINK_IsHalted() -- CPU_ReadMem(2 bytes @ 0x20000000)  returns TRUE (0006ms, 0950ms total)
T050C 002:394 JLINK_ReadReg(R15 (PC))  returns 0x20000000 (0000ms, 0944ms total)
T050C 002:394 JLINK_ClrBPEx(BPHandle = 0x0000000C)  returns 0x00 (0000ms, 0944ms total)
T050C 002:394 JLINK_ReadReg(R0)  returns 0x00000000 (0000ms, 0944ms total)
T050C 002:395 JLINK_WriteMem(0x20000164, 0x0400 Bytes, ...) -- Data:  46 FF 45 EA C0 05 04 21 BE 48 FE F7 40 FF BE 49 ... -- CPU_WriteMem(1024 bytes @ 0x20000164)  returns 0x400 (0014ms, 0958ms total)
T050C 002:409 JLINK_WriteReg(R0, 0x08002000)  returns 0x00 (0000ms, 0958ms total)
T050C 002:409 JLINK_WriteReg(R1, 0x00000400)  returns 0x00 (0000ms, 0958ms total)
T050C 002:409 JLINK_WriteReg(R2, 0x20000164)  returns 0x00 (0000ms, 0958ms total)
T050C 002:409 JLINK_WriteReg(R3, 0x00000000)  returns 0x00 (0000ms, 0958ms total)
T050C 002:409 JLINK_WriteReg(R4, 0x00000000)  returns 0x00 (0000ms, 0958ms total)
T050C 002:409 JLINK_WriteReg(R5, 0x00000000)  returns 0x00 (0000ms, 0958ms total)
T050C 002:409 JLINK_WriteReg(R6, 0x00000000)  returns 0x00 (0000ms, 0958ms total)
T050C 002:409 JLINK_WriteReg(R7, 0x00000000)  returns 0x00 (0000ms, 0958ms total)
T050C 002:409 JLINK_WriteReg(R8, 0x00000000)  returns 0x00 (0000ms, 0958ms total)
T050C 002:409 JLINK_WriteReg(R9, 0x20000160)  returns 0x00 (0001ms, 0959ms total)
T050C 002:410 JLINK_WriteReg(R10, 0x00000000)  returns 0x00 (0000ms, 0959ms total)
T050C 002:410 JLINK_WriteReg(R11, 0x00000000)  returns 0x00 (0000ms, 0959ms total)
T050C 002:410 JLINK_WriteReg(R12, 0x00000000)  returns 0x00 (0000ms, 0959ms total)
T050C 002:410 JLINK_WriteReg(R13 (SP), 0x20000800)  returns 0x00 (0000ms, 0959ms total)
T050C 002:410 JLINK_WriteReg(R14, 0x20000001)  returns 0x00 (0000ms, 0959ms total)
T050C 002:410 JLINK_WriteReg(R15 (PC), 0x200000F4)  returns 0x00 (0000ms, 0959ms total)
T050C 002:410 JLINK_WriteReg(XPSR, 0x01000000)  returns 0x00 (0000ms, 0959ms total)
T050C 002:410 JLINK_WriteReg(MSP, 0x20000800)  returns 0x00 (0000ms, 0959ms total)
T050C 002:410 JLINK_WriteReg(PSP, 0x20000800)  returns 0x00 (0000ms, 0959ms total)
T050C 002:410 JLINK_WriteReg(CFBP, 0x00000000)  returns 0x00 (0000ms, 0959ms total)
T050C 002:410 JLINK_SetBPEx(Addr = 0x20000000, Type = 0xFFFFFFF2)  returns 0x0000000D (0000ms, 0959ms total)
T050C 002:410 JLINK_Go() (0004ms, 0963ms total)
T050C 002:414 JLINK_IsHalted()  returns FALSE (0001ms, 0964ms total)
T050C 002:428 JLINK_IsHalted()  returns FALSE (0001ms, 0964ms total)
T050C 002:431 JLINK_IsHalted()  returns FALSE (0001ms, 0964ms total)
T050C 002:434 JLINK_IsHalted()  returns FALSE (0001ms, 0964ms total)
T050C 002:437 JLINK_IsHalted()  returns FALSE (0001ms, 0964ms total)
T050C 002:497 JLINK_IsHalted() -- CPU_ReadMem(2 bytes @ 0x20000000)  returns TRUE (0006ms, 0969ms total)
T050C 002:503 JLINK_ReadReg(R15 (PC))  returns 0x20000000 (0000ms, 0963ms total)
T050C 002:503 JLINK_ClrBPEx(BPHandle = 0x0000000D)  returns 0x00 (0000ms, 0963ms total)
T050C 002:503 JLINK_ReadReg(R0)  returns 0x00000000 (0000ms, 0963ms total)
T050C 002:504 JLINK_WriteMem(0x20000164, 0x0400 Bytes, ...) -- Data:  FF F7 0A B9 38 B5 01 21 0D 20 FE F7 46 FC 01 21 ... -- CPU_WriteMem(1024 bytes @ 0x20000164)  returns 0x400 (0014ms, 0977ms total)
T050C 002:518 JLINK_WriteReg(R0, 0x08002400)  returns 0x00 (0000ms, 0977ms total)
T050C 002:518 JLINK_WriteReg(R1, 0x00000400)  returns 0x00 (0000ms, 0977ms total)
T050C 002:518 JLINK_WriteReg(R2, 0x20000164)  returns 0x00 (0000ms, 0977ms total)
T050C 002:518 JLINK_WriteReg(R3, 0x00000000)  returns 0x00 (0000ms, 0977ms total)
T050C 002:518 JLINK_WriteReg(R4, 0x00000000)  returns 0x00 (0000ms, 0977ms total)
T050C 002:518 JLINK_WriteReg(R5, 0x00000000)  returns 0x00 (0000ms, 0977ms total)
T050C 002:518 JLINK_WriteReg(R6, 0x00000000)  returns 0x00 (0000ms, 0977ms total)
T050C 002:518 JLINK_WriteReg(R7, 0x00000000)  returns 0x00 (0000ms, 0977ms total)
T050C 002:518 JLINK_WriteReg(R8, 0x00000000)  returns 0x00 (0000ms, 0977ms total)
T050C 002:518 JLINK_WriteReg(R9, 0x20000160)  returns 0x00 (0000ms, 0977ms total)
T050C 002:518 JLINK_WriteReg(R10, 0x00000000)  returns 0x00 (0000ms, 0977ms total)
T050C 002:518 JLINK_WriteReg(R11, 0x00000000)  returns 0x00 (0000ms, 0977ms total)
T050C 002:518 JLINK_WriteReg(R12, 0x00000000)  returns 0x00 (0001ms, 0978ms total)
T050C 002:519 JLINK_WriteReg(R13 (SP), 0x20000800)  returns 0x00 (0000ms, 0978ms total)
T050C 002:519 JLINK_WriteReg(R14, 0x20000001)  returns 0x00 (0000ms, 0978ms total)
T050C 002:519 JLINK_WriteReg(R15 (PC), 0x200000F4)  returns 0x00 (0000ms, 0978ms total)
T050C 002:519 JLINK_WriteReg(XPSR, 0x01000000)  returns 0x00 (0000ms, 0978ms total)
T050C 002:519 JLINK_WriteReg(MSP, 0x20000800)  returns 0x00 (0000ms, 0978ms total)
T050C 002:519 JLINK_WriteReg(PSP, 0x20000800)  returns 0x00 (0000ms, 0978ms total)
T050C 002:519 JLINK_WriteReg(CFBP, 0x00000000)  returns 0x00 (0000ms, 0978ms total)
T050C 002:519 JLINK_SetBPEx(Addr = 0x20000000, Type = 0xFFFFFFF2)  returns 0x0000000E (0000ms, 0978ms total)
T050C 002:519 JLINK_Go() (0003ms, 0981ms total)
T050C 002:522 JLINK_IsHalted()  returns FALSE (0001ms, 0982ms total)
T050C 002:542 JLINK_IsHalted()  returns FALSE (0001ms, 0982ms total)
T050C 002:545 JLINK_IsHalted()  returns FALSE (0001ms, 0982ms total)
T050C 002:598 JLINK_IsHalted() -- CPU_ReadMem(2 bytes @ 0x20000000)  returns TRUE (0006ms, 0987ms total)
T050C 002:604 JLINK_ReadReg(R15 (PC))  returns 0x20000000 (0000ms, 0981ms total)
T050C 002:604 JLINK_ClrBPEx(BPHandle = 0x0000000E)  returns 0x00 (0000ms, 0981ms total)
T050C 002:604 JLINK_ReadReg(R0)  returns 0x00000000 (0000ms, 0981ms total)
T050C 002:605 JLINK_WriteMem(0x20000164, 0x0400 Bytes, ...) -- Data:  6A 46 48 78 00 90 00 20 8D F8 08 00 01 90 8D F8 ... -- CPU_WriteMem(1024 bytes @ 0x20000164)  returns 0x400 (0014ms, 0995ms total)
T050C 002:619 JLINK_WriteReg(R0, 0x08002800)  returns 0x00 (0000ms, 0995ms total)
T050C 002:619 JLINK_WriteReg(R1, 0x00000400)  returns 0x00 (0000ms, 0995ms total)
T050C 002:619 JLINK_WriteReg(R2, 0x20000164)  returns 0x00 (0000ms, 0995ms total)
T050C 002:619 JLINK_WriteReg(R3, 0x00000000)  returns 0x00 (0000ms, 0995ms total)
T050C 002:619 JLINK_WriteReg(R4, 0x00000000)  returns 0x00 (0000ms, 0995ms total)
T050C 002:619 JLINK_WriteReg(R5, 0x00000000)  returns 0x00 (0000ms, 0995ms total)
T050C 002:619 JLINK_WriteReg(R6, 0x00000000)  returns 0x00 (0000ms, 0995ms total)
T050C 002:619 JLINK_WriteReg(R7, 0x00000000)  returns 0x00 (0000ms, 0995ms total)
T050C 002:619 JLINK_WriteReg(R8, 0x00000000)  returns 0x00 (0000ms, 0995ms total)
T050C 002:619 JLINK_WriteReg(R9, 0x20000160)  returns 0x00 (0000ms, 0995ms total)
T050C 002:619 JLINK_WriteReg(R10, 0x00000000)  returns 0x00 (0000ms, 0995ms total)
T050C 002:619 JLINK_WriteReg(R11, 0x00000000)  returns 0x00 (0000ms, 0995ms total)
T050C 002:619 JLINK_WriteReg(R12, 0x00000000)  returns 0x00 (0000ms, 0995ms total)
T050C 002:619 JLINK_WriteReg(R13 (SP), 0x20000800)  returns 0x00 (0000ms, 0995ms total)
T050C 002:619 JLINK_WriteReg(R14, 0x20000001)  returns 0x00 (0001ms, 0996ms total)
T050C 002:620 JLINK_WriteReg(R15 (PC), 0x200000F4)  returns 0x00 (0000ms, 0996ms total)
T050C 002:620 JLINK_WriteReg(XPSR, 0x01000000)  returns 0x00 (0000ms, 0996ms total)
T050C 002:620 JLINK_WriteReg(MSP, 0x20000800)  returns 0x00 (0000ms, 0996ms total)
T050C 002:620 JLINK_WriteReg(PSP, 0x20000800)  returns 0x00 (0000ms, 0996ms total)
T050C 002:620 JLINK_WriteReg(CFBP, 0x00000000)  returns 0x00 (0000ms, 0996ms total)
T050C 002:620 JLINK_SetBPEx(Addr = 0x20000000, Type = 0xFFFFFFF2)  returns 0x0000000F (0000ms, 0996ms total)
T050C 002:620 JLINK_Go() (0003ms, 0999ms total)
T050C 002:623 JLINK_IsHalted()  returns FALSE (0001ms, 1000ms total)
T050C 002:638 JLINK_IsHalted()  returns FALSE (0001ms, 1000ms total)
T050C 002:641 JLINK_IsHalted()  returns FALSE (0001ms, 1000ms total)
T050C 002:652 JLINK_IsHalted()  returns FALSE (0001ms, 1000ms total)
T050C 002:655 JLINK_IsHalted() -- CPU_ReadMem(2 bytes @ 0x20000000)  returns TRUE (0006ms, 1005ms total)
T050C 002:661 JLINK_ReadReg(R15 (PC))  returns 0x20000000 (0000ms, 0999ms total)
T050C 002:661 JLINK_ClrBPEx(BPHandle = 0x0000000F)  returns 0x00 (0000ms, 0999ms total)
T050C 002:661 JLINK_ReadReg(R0)  returns 0x00000000 (0000ms, 0999ms total)
T050C 002:663 JLINK_WriteMem(0x20000164, 0x0400 Bytes, ...) -- Data:  20 46 FF F7 43 F8 C1 B2 20 46 FF F7 3B F8 61 14 ... -- CPU_WriteMem(1024 bytes @ 0x20000164)  returns 0x400 (0013ms, 1012ms total)
T050C 002:676 JLINK_WriteReg(R0, 0x08002C00)  returns 0x00 (0000ms, 1012ms total)
T050C 002:676 JLINK_WriteReg(R1, 0x0000031C)  returns 0x00 (0000ms, 1012ms total)
T050C 002:676 JLINK_WriteReg(R2, 0x20000164)  returns 0x00 (0000ms, 1012ms total)
T050C 002:676 JLINK_WriteReg(R3, 0x00000000)  returns 0x00 (0000ms, 1012ms total)
T050C 002:676 JLINK_WriteReg(R4, 0x00000000)  returns 0x00 (0000ms, 1012ms total)
T050C 002:676 JLINK_WriteReg(R5, 0x00000000)  returns 0x00 (0000ms, 1012ms total)
T050C 002:676 JLINK_WriteReg(R6, 0x00000000)  returns 0x00 (0000ms, 1012ms total)
T050C 002:676 JLINK_WriteReg(R7, 0x00000000)  returns 0x00 (0000ms, 1012ms total)
T050C 002:676 JLINK_WriteReg(R8, 0x00000000)  returns 0x00 (0000ms, 1012ms total)
T050C 002:676 JLINK_WriteReg(R9, 0x20000160)  returns 0x00 (0000ms, 1012ms total)
T050C 002:676 JLINK_WriteReg(R10, 0x00000000)  returns 0x00 (0000ms, 1012ms total)
T050C 002:676 JLINK_WriteReg(R11, 0x00000000)  returns 0x00 (0000ms, 1012ms total)
T050C 002:676 JLINK_WriteReg(R12, 0x00000000)  returns 0x00 (0000ms, 1012ms total)
T050C 002:676 JLINK_WriteReg(R13 (SP), 0x20000800)  returns 0x00 (0000ms, 1012ms total)
T050C 002:676 JLINK_WriteReg(R14, 0x20000001)  returns 0x00 (0000ms, 1012ms total)
T050C 002:676 JLINK_WriteReg(R15 (PC), 0x200000F4)  returns 0x00 (0000ms, 1012ms total)
T050C 002:676 JLINK_WriteReg(XPSR, 0x01000000)  returns 0x00 (0000ms, 1012ms total)
T050C 002:676 JLINK_WriteReg(MSP, 0x20000800)  returns 0x00 (0001ms, 1013ms total)
T050C 002:677 JLINK_WriteReg(PSP, 0x20000800)  returns 0x00 (0000ms, 1013ms total)
T050C 002:677 JLINK_WriteReg(CFBP, 0x00000000)  returns 0x00 (0000ms, 1013ms total)
T050C 002:677 JLINK_SetBPEx(Addr = 0x20000000, Type = 0xFFFFFFF2)  returns 0x00000010 (0000ms, 1013ms total)
T050C 002:677 JLINK_Go() (0003ms, 1016ms total)
T050C 002:680 JLINK_IsHalted()  returns FALSE (0001ms, 1017ms total)
T050C 002:731 JLINK_IsHalted() -- CPU_ReadMem(2 bytes @ 0x20000000)  returns TRUE (0006ms, 1022ms total)
T050C 002:737 JLINK_ReadReg(R15 (PC))  returns 0x20000000 (0000ms, 1016ms total)
T050C 002:737 JLINK_ClrBPEx(BPHandle = 0x00000010)  returns 0x00 (0000ms, 1016ms total)
T050C 002:737 JLINK_ReadReg(R0)  returns 0x00000000 (0000ms, 1016ms total)
T050C 002:737 JLINK_WriteReg(R0, 0x00000002)  returns 0x00 (0000ms, 1016ms total)
T050C 002:737 JLINK_WriteReg(R1, 0x0000031C)  returns 0x00 (0000ms, 1016ms total)
T050C 002:737 JLINK_WriteReg(R2, 0x20000164)  returns 0x00 (0000ms, 1016ms total)
T050C 002:737 JLINK_WriteReg(R3, 0x00000000)  returns 0x00 (0000ms, 1016ms total)
T050C 002:737 JLINK_WriteReg(R4, 0x00000000)  returns 0x00 (0000ms, 1016ms total)
T050C 002:737 JLINK_WriteReg(R5, 0x00000000)  returns 0x00 (0000ms, 1016ms total)
T050C 002:737 JLINK_WriteReg(R6, 0x00000000)  returns 0x00 (0000ms, 1016ms total)
T050C 002:737 JLINK_WriteReg(R7, 0x00000000)  returns 0x00 (0000ms, 1016ms total)
T050C 002:737 JLINK_WriteReg(R8, 0x00000000)  returns 0x00 (0000ms, 1016ms total)
T050C 002:737 JLINK_WriteReg(R9, 0x20000160)  returns 0x00 (0000ms, 1016ms total)
T050C 002:737 JLINK_WriteReg(R10, 0x00000000)  returns 0x00 (0000ms, 1016ms total)
T050C 002:737 JLINK_WriteReg(R11, 0x00000000)  returns 0x00 (0000ms, 1016ms total)
T050C 002:737 JLINK_WriteReg(R12, 0x00000000)  returns 0x00 (0000ms, 1016ms total)
T050C 002:737 JLINK_WriteReg(R13 (SP), 0x20000800)  returns 0x00 (0000ms, 1016ms total)
T050C 002:738 JLINK_WriteReg(R14, 0x20000001)  returns 0x00 (0000ms, 1017ms total)
T050C 002:738 JLINK_WriteReg(R15 (PC), 0x2000006A)  returns 0x00 (0000ms, 1017ms total)
T050C 002:738 JLINK_WriteReg(XPSR, 0x01000000)  returns 0x00 (0000ms, 1017ms total)
T050C 002:738 JLINK_WriteReg(MSP, 0x20000800)  returns 0x00 (0000ms, 1017ms total)
T050C 002:738 JLINK_WriteReg(PSP, 0x20000800)  returns 0x00 (0000ms, 1017ms total)
T050C 002:738 JLINK_WriteReg(CFBP, 0x00000000)  returns 0x00 (0000ms, 1017ms total)
T050C 002:738 JLINK_SetBPEx(Addr = 0x20000000, Type = 0xFFFFFFF2)  returns 0x00000011 (0000ms, 1017ms total)
T050C 002:738 JLINK_Go() (0003ms, 1020ms total)
T050C 002:741 JLINK_IsHalted() -- CPU_ReadMem(2 bytes @ 0x20000000)  returns TRUE (0006ms, 1026ms total)
T050C 002:747 JLINK_ReadReg(R15 (PC))  returns 0x20000000 (0000ms, 1020ms total)
T050C 002:747 JLINK_ClrBPEx(BPHandle = 0x00000011)  returns 0x00 (0000ms, 1020ms total)
T050C 002:747 JLINK_ReadReg(R0)  returns 0x00000000 (0000ms, 1020ms total)
T050C 002:814 JLINK_WriteMem(0x20000000, 0x0164 Bytes, ...) -- Data:  00 BE 0A E0 0D 78 2D 06 68 40 08 24 40 00 00 D3 ... -- CPU_WriteMem(356 bytes @ 0x20000000)  returns 0x164 (0006ms, 1026ms total)
T050C 002:820 JLINK_WriteReg(R0, 0x08000000)  returns 0x00 (0000ms, 1026ms total)
T050C 002:820 JLINK_WriteReg(R1, 0x007A1200)  returns 0x00 (0000ms, 1026ms total)
T050C 002:820 JLINK_WriteReg(R2, 0x00000003)  returns 0x00 (0000ms, 1026ms total)
T050C 002:820 JLINK_WriteReg(R3, 0x00000000)  returns 0x00 (0000ms, 1026ms total)
T050C 002:820 JLINK_WriteReg(R4, 0x00000000)  returns 0x00 (0000ms, 1026ms total)
T050C 002:820 JLINK_WriteReg(R5, 0x00000000)  returns 0x00 (0000ms, 1026ms total)
T050C 002:820 JLINK_WriteReg(R6, 0x00000000)  returns 0x00 (0000ms, 1026ms total)
T050C 002:820 JLINK_WriteReg(R7, 0x00000000)  returns 0x00 (0000ms, 1026ms total)
T050C 002:820 JLINK_WriteReg(R8, 0x00000000)  returns 0x00 (0000ms, 1026ms total)
T050C 002:820 JLINK_WriteReg(R9, 0x20000160)  returns 0x00 (0000ms, 1026ms total)
